Sample in Buffer,Sample in Window,TRIGGER,PS_PL_i/n3z_tonetest_0_userpicoaddress[10:0],PS_PL_i/Dout[7:0],u_ila_0_blk_mem_gen_0_douta_1[0:0],PS_PL_i/blk_mem_gen_0_douta[11:1],u_ila_0_blk_mem_gen_0_douta[17:12],Program address,Program Instruction,u_ila_0_axi_fifo_mm_s_0_axi_str_txd_tvalid,u_ila_0_axi_fifo_mm_s_1_axi_str_rxd_tready,PS_PL_i/axi_fifo_mm_s_1_axi_str_txd_tvalid,PS_PL_i/n3z_tonetest_0_pl2ps_tvalid,lopt
,,,,Data from fifo to PL,,,,,,Writing to BRAM (ie only at startup!),User to ARM fifo OK to receive data,ARM fifo to PL data write,User back to ARM fifo write,PL fifo not almost full
0,0,0,04d,0a,1,55,38,04d,380AB,0,1,0,0,1
1,1,0,04e,0a,1,55,38,04e,380AB,0,1,0,0,1
2,2,0,04e,0a,1,17f,20,04e,202FF,0,1,0,0,1
3,3,0,2ff,0a,1,17f,20,2ff,202FF,0,1,0,0,1
4,4,0,2ff,0a,0,83,9,2ff,9106,0,1,0,0,1
5,5,0,300,0a,0,83,9,300,9106,0,1,0,0,1
6,6,0,300,0a,0,308,0,300,610,0,1,0,0,1
7,7,0,301,0a,0,308,0,301,610,0,1,0,0,1
8,8,0,301,0a,0,0c0,1d,301,1D180,0,1,0,0,1
9,9,0,302,0a,0,0c0,1d,302,1D180,0,1,0,0,1
10,10,0,302,0a,1,18a,38,302,38315,0,1,0,0,1
11,11,0,303,0a,1,18a,38,303,38315,0,1,0,0,1
12,12,0,303,0a,0,0,25,303,25000,0,1,0,0,1
13,13,0,04f,0a,0,0,25,04f,25000,0,1,0,0,1
14,14,0,04f,0a,0,340,1d,04f,1D680,0,1,0,0,1
15,15,0,50,0a,0,340,1d,50,1D680,0,1,0,0,1
16,16,0,50,0a,1,05a,38,50,380B5,0,1,0,0,1
17,17,0,51,0a,1,05a,38,51,380B5,0,1,0,0,1
18,18,0,51,0a,0,9,0b,51,B012,0,1,0,0,1
19,19,0,52,0a,0,9,0b,52,B012,0,1,0,0,1
20,20,0,52,0a,1,0,3,52,3001,0,1,0,0,1
21,21,0,53,0a,1,0,3,53,3001,0,1,0,0,1
22,22,0,53,0a,1,0,1d,53,1D001,0,1,0,0,1
23,23,0,54,0a,1,0,1d,54,1D001,0,1,0,0,1
24,24,0,54,0a,1,160,30,54,302C1,0,1,0,0,1
25,25,0,55,0a,1,160,30,55,302C1,0,1,0,0,1
26,26,0,55,0a,0,16e,20,55,202DC,0,1,0,0,1
27,27,0,2dc,0a,0,16e,20,2dc,202DC,0,1,0,0,1
28,28,0,2dc,0a,1,37f,1,2dc,16FF,0,1,0,0,1
29,29,0,2dd,0a,1,37f,1,2dd,16FF,0,1,0,0,1
30,30,0,2dd,0a,0,1bd,20,2dd,2037A,0,1,0,0,1
31,31,0,37a,0a,0,1bd,20,37a,2037A,0,1,0,0,1
32,32,0,37a,0a,1,0,9,37a,9001,0,1,0,0,1
33,33,0,37b,0a,1,0,9,37b,9001,0,1,0,0,1
34,34,0,37b,0a,1,0,3,37b,3001,0,1,0,0,1
35,35,0,37c,0a,1,0,3,37c,3001,0,1,0,0,1
36,36,0,37c,0a,1,0,1d,37c,1D001,0,1,0,0,1
37,37,0,37d,0a,1,0,1d,37d,1D001,0,1,0,0,1
38,38,0,37d,0a,0,0,25,37d,25000,0,1,0,0,1
39,39,0,2de,0a,0,0,25,2de,25000,0,1,0,0,1
40,40,0,2de,0a,0,0,35,2de,35000,0,1,0,0,1
41,41,0,56,0a,0,0,35,56,35000,0,1,0,0,1
42,42,0,56,0a,1,37f,1d,56,1D6FF,0,1,0,0,1
43,43,0,57,0a,1,37f,1d,57,1D6FF,0,1,0,0,1
44,44,0,57,0a,0,21,32,57,32042,0,1,0,0,1
45,45,0,42,0a,0,21,32,42,32042,0,1,0,0,1
46,46,0,42,0a,1,37,20,42,2006F,0,1,0,0,1
47,47,0,06f,0a,1,37,20,06f,2006F,0,1,0,0,1
48,48,0,06f,0a,1,7,9,06f,900F,0,1,0,0,1
49,49,0,70,0a,1,7,9,70,900F,0,1,0,0,1
50,50,0,70,0a,1,08a,0b,70,B115,0,1,0,0,1
51,51,0,71,0a,1,08a,0b,71,B115,0,1,0,0,1
52,52,0,71,0a,0,8,1c,71,1C010,0,1,0,0,1
53,53,0,72,0a,0,8,1c,72,1C010,0,1,0,0,1
54,54,0,72,0a,0,0,31,72,31000,0,1,0,0,1
55,55,0,43,0a,0,0,31,43,31000,0,1,0,0,1
56,56,0,43,0a,0,9,0b,43,B012,0,1,0,0,1
57,57,0,44,0a,0,9,0b,44,B012,0,1,0,0,1
58,58,0,44,0a,0,2,3,44,3004,0,1,0,0,1
59,59,0,45,0a,0,2,3,45,3004,0,1,0,0,1
60,60,0,45,0a,0,2,1d,45,1D004,0,1,0,0,1
61,61,0,46,0a,0,2,1d,46,1D004,0,1,0,0,1
62,62,0,46,0a,0,0d7,32,46,321AE,0,1,0,0,1
63,63,0,47,0a,0,0d7,32,47,321AE,0,1,0,0,1
64,64,0,47,0a,0,9,0b,47,B012,0,1,0,0,1
65,65,0,48,0a,0,9,0b,48,B012,0,1,0,0,1
66,66,0,48,0a,0,4,3,48,3008,0,1,0,0,1
67,67,0,49,0a,0,4,3,49,3008,0,1,0,0,1
68,68,0,49,0a,0,4,1d,49,1D008,0,1,0,0,1
69,69,0,04a,0a,0,4,1d,04a,1D008,0,1,0,0,1
70,70,0,04a,0a,0,17b,30,04a,302F6,0,1,0,0,1
71,71,0,04b,0a,0,17b,30,04b,302F6,0,1,0,0,1
72,72,0,04b,0a,0,182,20,04b,20304,0,1,0,0,1
73,73,0,304,0a,0,182,20,304,20304,0,1,0,0,1
74,74,0,304,0a,1,83,9,304,9107,0,1,0,0,1
75,75,0,305,0a,1,83,9,305,9107,0,1,0,0,1
76,76,0,305,0a,0,308,0,305,610,0,1,0,0,1
77,77,0,306,0a,0,308,0,306,610,0,1,0,0,1
78,78,0,306,0a,0,0c0,1d,306,1D180,0,1,0,0,1
79,79,0,307,0a,0,0c0,1d,307,1D180,0,1,0,0,1
80,80,0,307,0a,1,18d,38,307,3831B,0,1,0,0,1
81,81,0,308,0a,1,18d,38,308,3831B,0,1,0,0,1
82,82,0,308,0a,0,0,25,308,25000,0,1,0,0,1
83,83,0,04c,0a,0,0,25,04c,25000,0,1,0,0,1
84,84,0,04c,0a,0,340,1d,04c,1D680,0,1,0,0,1
85,85,0,04d,0a,0,340,1d,04d,1D680,0,1,0,0,1
86,86,0,04d,0a,1,55,38,04d,380AB,0,1,0,0,1
87,87,0,04e,0a,1,55,38,04e,380AB,0,1,0,0,1
88,88,0,04e,0a,1,17f,20,04e,202FF,0,1,0,0,1
89,89,0,2ff,0a,1,17f,20,2ff,202FF,0,1,0,0,1
90,90,0,2ff,0a,0,83,9,2ff,9106,0,1,0,0,1
91,91,0,300,0a,0,83,9,300,9106,0,1,0,0,1
92,92,0,300,0a,0,308,0,300,610,0,1,0,0,1
93,93,0,301,0a,0,308,0,301,610,0,1,0,0,1
94,94,0,301,0a,0,0c0,1d,301,1D180,0,1,0,0,1
95,95,0,302,0a,0,0c0,1d,302,1D180,0,1,0,0,1
96,96,0,302,0a,1,18a,38,302,38315,0,1,0,0,1
97,97,0,303,0a,1,18a,38,303,38315,0,1,0,0,1
98,98,0,303,0a,0,0,25,303,25000,0,1,0,0,1
99,99,0,04f,0a,0,0,25,04f,25000,0,1,0,0,1
100,100,0,04f,0a,0,340,1d,04f,1D680,0,1,0,0,1
101,101,0,50,0a,0,340,1d,50,1D680,0,1,0,0,1
102,102,0,50,0a,1,05a,38,50,380B5,0,1,0,0,1
103,103,0,51,0a,1,05a,38,51,380B5,0,1,0,0,1
104,104,0,51,0a,0,9,0b,51,B012,0,1,0,0,1
105,105,0,52,0a,0,9,0b,52,B012,0,1,0,0,1
106,106,0,52,0a,1,0,3,52,3001,0,1,0,0,1
107,107,0,53,0a,1,0,3,53,3001,0,1,0,0,1
108,108,0,53,0a,1,0,1d,53,1D001,0,1,0,0,1
109,109,0,54,0a,1,0,1d,54,1D001,0,1,0,0,1
110,110,0,54,0a,1,160,30,54,302C1,0,1,0,0,1
111,111,0,55,0a,1,160,30,55,302C1,0,1,0,0,1
112,112,0,55,0a,0,16e,20,55,202DC,0,1,0,0,1
113,113,0,2dc,0a,0,16e,20,2dc,202DC,0,1,0,0,1
114,114,0,2dc,0a,1,37f,1,2dc,16FF,0,1,0,0,1
115,115,0,2dd,0a,1,37f,1,2dd,16FF,0,1,0,0,1
116,116,0,2dd,0a,0,1bd,20,2dd,2037A,0,1,0,0,1
117,117,0,37a,0a,0,1bd,20,37a,2037A,0,1,0,0,1
118,118,0,37a,0a,1,0,9,37a,9001,0,1,0,0,1
119,119,0,37b,0a,1,0,9,37b,9001,0,1,0,0,1
120,120,0,37b,0a,1,0,3,37b,3001,0,1,0,0,1
121,121,0,37c,0a,1,0,3,37c,3001,0,1,0,0,1
122,122,0,37c,0a,1,0,1d,37c,1D001,0,1,0,0,1
123,123,0,37d,0a,1,0,1d,37d,1D001,0,1,0,0,1
124,124,0,37d,0a,0,0,25,37d,25000,0,1,0,0,1
125,125,0,2de,0a,0,0,25,2de,25000,0,1,0,0,1
126,126,0,2de,0a,0,0,35,2de,35000,0,1,0,0,1
127,127,0,56,0a,0,0,35,56,35000,0,1,0,0,1
128,128,0,56,0a,1,37f,1d,56,1D6FF,0,1,0,0,1
129,129,0,57,0a,1,37f,1d,57,1D6FF,0,1,0,0,1
130,130,0,57,0a,0,21,32,57,32042,0,1,0,0,1
131,131,0,42,0a,0,21,32,42,32042,0,1,0,0,1
132,132,0,42,0a,1,37,20,42,2006F,0,1,0,0,1
133,133,0,06f,0a,1,37,20,06f,2006F,0,1,0,0,1
134,134,0,06f,0a,1,7,9,06f,900F,0,1,0,0,1
135,135,0,70,0a,1,7,9,70,900F,0,1,0,0,1
136,136,0,70,0a,1,08a,0b,70,B115,0,1,0,0,1
137,137,0,71,0a,1,08a,0b,71,B115,0,1,0,0,1
138,138,0,71,0a,0,8,1c,71,1C010,0,1,0,0,1
139,139,0,72,0a,0,8,1c,72,1C010,0,1,0,0,1
140,140,0,72,0a,0,0,31,72,31000,0,1,0,0,1
141,141,0,43,0a,0,0,31,43,31000,0,1,0,0,1
142,142,0,43,0a,0,9,0b,43,B012,0,1,0,0,1
143,143,0,44,0a,0,9,0b,44,B012,0,1,0,0,1
144,144,0,44,0a,0,2,3,44,3004,0,1,0,0,1
145,145,0,45,0a,0,2,3,45,3004,0,1,0,0,1
146,146,0,45,0a,0,2,1d,45,1D004,0,1,0,0,1
147,147,0,46,0a,0,2,1d,46,1D004,0,1,0,0,1
148,148,0,46,0a,0,0d7,32,46,321AE,0,1,0,0,1
149,149,0,47,0a,0,0d7,32,47,321AE,0,1,0,0,1
150,150,0,47,0a,0,9,0b,47,B012,0,1,0,0,1
151,151,0,48,0a,0,9,0b,48,B012,0,1,0,0,1
152,152,0,48,0a,0,4,3,48,3008,0,1,0,0,1
153,153,0,49,0a,0,4,3,49,3008,0,1,0,0,1
154,154,0,49,0a,0,4,1d,49,1D008,0,1,0,0,1
155,155,0,04a,0a,0,4,1d,04a,1D008,0,1,0,0,1
156,156,0,04a,0a,0,17b,30,04a,302F6,0,1,0,0,1
157,157,0,04b,0a,0,17b,30,04b,302F6,0,1,0,0,1
158,158,0,04b,0a,0,182,20,04b,20304,0,1,0,0,1
159,159,0,304,0a,0,182,20,304,20304,0,1,0,0,1
160,160,0,304,0a,1,83,9,304,9107,0,1,0,0,1
161,161,0,305,0a,1,83,9,305,9107,0,1,0,0,1
162,162,0,305,0a,0,308,0,305,610,0,1,0,0,1
163,163,0,306,0a,0,308,0,306,610,0,1,0,0,1
164,164,0,306,0a,0,0c0,1d,306,1D180,0,1,0,0,1
165,165,0,307,0a,0,0c0,1d,307,1D180,0,1,0,0,1
166,166,0,307,0a,1,18d,38,307,3831B,0,1,0,0,1
167,167,0,308,0a,1,18d,38,308,3831B,0,1,0,0,1
168,168,0,308,0a,0,0,25,308,25000,0,1,0,0,1
169,169,0,04c,0a,0,0,25,04c,25000,0,1,0,0,1
170,170,0,04c,0a,0,340,1d,04c,1D680,0,1,0,0,1
171,171,0,04d,0a,0,340,1d,04d,1D680,0,1,0,0,1
172,172,0,04d,0a,1,55,38,04d,380AB,0,1,0,0,1
173,173,0,04e,0a,1,55,38,04e,380AB,0,1,0,0,1
174,174,0,04e,0a,1,17f,20,04e,202FF,0,1,0,0,1
175,175,0,2ff,0a,1,17f,20,2ff,202FF,0,1,0,0,1
176,176,0,2ff,0a,0,83,9,2ff,9106,0,1,0,0,1
177,177,0,300,0a,0,83,9,300,9106,0,1,0,0,1
178,178,0,300,0a,0,308,0,300,610,0,1,0,0,1
179,179,0,301,0a,0,308,0,301,610,0,1,0,0,1
180,180,0,301,0a,0,0c0,1d,301,1D180,0,1,0,0,1
181,181,0,302,0a,0,0c0,1d,302,1D180,0,1,0,0,1
182,182,0,302,0a,1,18a,38,302,38315,0,1,0,0,1
183,183,0,303,0a,1,18a,38,303,38315,0,1,0,0,1
184,184,0,303,0a,0,0,25,303,25000,0,1,0,0,1
185,185,0,04f,0a,0,0,25,04f,25000,0,1,0,0,1
186,186,0,04f,0a,0,340,1d,04f,1D680,0,1,0,0,1
187,187,0,50,0a,0,340,1d,50,1D680,0,1,0,0,1
188,188,0,50,0a,1,05a,38,50,380B5,0,1,0,0,1
189,189,0,51,0a,1,05a,38,51,380B5,0,1,0,0,1
190,190,0,51,0a,0,9,0b,51,B012,0,1,0,0,1
191,191,0,52,0a,0,9,0b,52,B012,0,1,0,0,1
192,192,0,52,0a,1,0,3,52,3001,0,1,0,0,1
193,193,0,53,0a,1,0,3,53,3001,0,1,0,0,1
194,194,0,53,0a,1,0,1d,53,1D001,0,1,0,0,1
195,195,0,54,0a,1,0,1d,54,1D001,0,1,0,0,1
196,196,0,54,0a,1,160,30,54,302C1,0,1,0,0,1
197,197,0,55,0a,1,160,30,55,302C1,0,1,0,0,1
198,198,0,55,0a,0,16e,20,55,202DC,0,1,0,0,1
199,199,0,2dc,0a,0,16e,20,2dc,202DC,0,1,0,0,1
200,200,0,2dc,0a,1,37f,1,2dc,16FF,0,1,0,0,1
201,201,0,2dd,0a,1,37f,1,2dd,16FF,0,1,0,0,1
202,202,0,2dd,0a,0,1bd,20,2dd,2037A,0,1,0,0,1
203,203,0,37a,0a,0,1bd,20,37a,2037A,0,1,0,0,1
204,204,0,37a,0a,1,0,9,37a,9001,0,1,0,0,1
205,205,0,37b,0a,1,0,9,37b,9001,0,1,0,0,1
206,206,0,37b,0a,1,0,3,37b,3001,0,1,0,0,1
207,207,0,37c,0a,1,0,3,37c,3001,0,1,0,0,1
208,208,0,37c,0a,1,0,1d,37c,1D001,0,1,0,0,1
209,209,0,37d,0a,1,0,1d,37d,1D001,0,1,0,0,1
210,210,0,37d,0a,0,0,25,37d,25000,0,1,0,0,1
211,211,0,2de,0a,0,0,25,2de,25000,0,1,0,0,1
212,212,0,2de,0a,0,0,35,2de,35000,0,1,0,0,1
213,213,0,56,0a,0,0,35,56,35000,0,1,0,0,1
214,214,0,56,0a,1,37f,1d,56,1D6FF,0,1,0,0,1
215,215,0,57,0a,1,37f,1d,57,1D6FF,0,1,0,0,1
216,216,0,57,0a,0,21,32,57,32042,0,1,0,0,1
217,217,0,42,0a,0,21,32,42,32042,0,1,0,0,1
218,218,0,42,0a,1,37,20,42,2006F,0,1,0,0,1
219,219,0,06f,0a,1,37,20,06f,2006F,0,1,0,0,1
220,220,0,06f,0a,1,7,9,06f,900F,0,1,0,0,1
221,221,0,70,0a,1,7,9,70,900F,0,1,0,0,1
222,222,0,70,0a,1,08a,0b,70,B115,0,1,0,0,1
223,223,0,71,0a,1,08a,0b,71,B115,0,1,0,0,1
224,224,0,71,0a,0,8,1c,71,1C010,0,1,0,0,1
225,225,0,72,0a,0,8,1c,72,1C010,0,1,0,0,1
226,226,0,72,0a,0,0,31,72,31000,0,1,0,0,1
227,227,0,43,0a,0,0,31,43,31000,0,1,0,0,1
228,228,0,43,0a,0,9,0b,43,B012,0,1,0,0,1
229,229,0,44,0a,0,9,0b,44,B012,0,1,0,0,1
230,230,0,44,0a,0,2,3,44,3004,0,1,0,0,1
231,231,0,45,0a,0,2,3,45,3004,0,1,0,0,1
232,232,0,45,0a,0,2,1d,45,1D004,0,1,0,0,1
233,233,0,46,0a,0,2,1d,46,1D004,0,1,0,0,1
234,234,0,46,0a,0,0d7,32,46,321AE,0,1,0,0,1
235,235,0,47,0a,0,0d7,32,47,321AE,0,1,0,0,1
236,236,0,47,0a,0,9,0b,47,B012,0,1,0,0,1
237,237,0,48,0a,0,9,0b,48,B012,0,1,0,0,1
238,238,0,48,0a,0,4,3,48,3008,0,1,0,0,1
239,239,0,49,0a,0,4,3,49,3008,0,1,0,0,1
240,240,0,49,0a,0,4,1d,49,1D008,0,1,0,0,1
241,241,0,04a,0a,0,4,1d,04a,1D008,0,1,0,0,1
242,242,0,04a,0a,0,17b,30,04a,302F6,0,1,0,0,1
243,243,0,04b,0a,0,17b,30,04b,302F6,0,1,0,0,1
244,244,0,04b,0a,0,182,20,04b,20304,0,1,0,0,1
245,245,0,304,0a,0,182,20,304,20304,0,1,0,0,1
246,246,0,304,0a,1,83,9,304,9107,0,1,0,0,1
247,247,0,305,0a,1,83,9,305,9107,0,1,0,0,1
248,248,0,305,0a,0,308,0,305,610,0,1,0,0,1
249,249,0,306,0a,0,308,0,306,610,0,1,0,0,1
250,250,0,306,0a,0,0c0,1d,306,1D180,0,1,0,0,1
251,251,0,307,0a,0,0c0,1d,307,1D180,0,1,0,0,1
252,252,0,307,0a,1,18d,38,307,3831B,0,1,0,0,1
253,253,0,308,0a,1,18d,38,308,3831B,0,1,0,0,1
254,254,0,308,0a,0,0,25,308,25000,0,1,0,0,1
255,255,0,04c,0a,0,0,25,04c,25000,0,1,0,0,1
256,256,0,04c,0a,0,340,1d,04c,1D680,0,1,0,0,1
257,257,0,04d,0a,0,340,1d,04d,1D680,0,1,0,0,1
258,258,0,04d,0a,1,55,38,04d,380AB,0,1,0,0,1
259,259,0,04e,0a,1,55,38,04e,380AB,0,1,0,0,1
260,260,0,04e,0a,1,17f,20,04e,202FF,0,1,0,0,1
261,261,0,2ff,0a,1,17f,20,2ff,202FF,0,1,0,0,1
262,262,0,2ff,0a,0,83,9,2ff,9106,0,1,0,0,1
263,263,0,300,0a,0,83,9,300,9106,0,1,0,0,1
264,264,0,300,0a,0,308,0,300,610,0,1,0,0,1
265,265,0,301,0a,0,308,0,301,610,0,1,0,0,1
266,266,0,301,0a,0,0c0,1d,301,1D180,0,1,0,0,1
267,267,0,302,0a,0,0c0,1d,302,1D180,0,1,0,0,1
268,268,0,302,0a,1,18a,38,302,38315,0,1,0,0,1
269,269,0,303,0a,1,18a,38,303,38315,0,1,0,0,1
270,270,0,303,0a,0,0,25,303,25000,0,1,0,0,1
271,271,0,04f,0a,0,0,25,04f,25000,0,1,0,0,1
272,272,0,04f,0a,0,340,1d,04f,1D680,0,1,0,0,1
273,273,0,50,0a,0,340,1d,50,1D680,0,1,0,0,1
274,274,0,50,0a,1,05a,38,50,380B5,0,1,0,0,1
275,275,0,51,0a,1,05a,38,51,380B5,0,1,0,0,1
276,276,0,51,0a,0,9,0b,51,B012,0,1,0,0,1
277,277,0,52,0a,0,9,0b,52,B012,0,1,0,0,1
278,278,0,52,0a,1,0,3,52,3001,0,1,0,0,1
279,279,0,53,0a,1,0,3,53,3001,0,1,0,0,1
280,280,0,53,0a,1,0,1d,53,1D001,0,1,0,0,1
281,281,0,54,0a,1,0,1d,54,1D001,0,1,0,0,1
282,282,0,54,0a,1,160,30,54,302C1,0,1,0,0,1
283,283,0,55,0a,1,160,30,55,302C1,0,1,0,0,1
284,284,0,55,0a,0,16e,20,55,202DC,0,1,0,0,1
285,285,0,2dc,0a,0,16e,20,2dc,202DC,0,1,0,0,1
286,286,0,2dc,0a,1,37f,1,2dc,16FF,0,1,0,0,1
287,287,0,2dd,0a,1,37f,1,2dd,16FF,0,1,0,0,1
288,288,0,2dd,0a,0,1bd,20,2dd,2037A,0,1,0,0,1
289,289,0,37a,0a,0,1bd,20,37a,2037A,0,1,0,0,1
290,290,0,37a,0a,1,0,9,37a,9001,0,1,0,0,1
291,291,0,37b,0a,1,0,9,37b,9001,0,1,0,0,1
292,292,0,37b,0a,1,0,3,37b,3001,0,1,0,0,1
293,293,0,37c,0a,1,0,3,37c,3001,0,1,0,0,1
294,294,0,37c,0a,1,0,1d,37c,1D001,0,1,0,0,1
295,295,0,37d,0a,1,0,1d,37d,1D001,0,1,0,0,1
296,296,0,37d,0a,0,0,25,37d,25000,0,1,0,0,1
297,297,0,2de,0a,0,0,25,2de,25000,0,1,0,0,1
298,298,0,2de,0a,0,0,35,2de,35000,0,1,0,0,1
299,299,0,56,0a,0,0,35,56,35000,0,1,0,0,1
300,300,0,56,0a,1,37f,1d,56,1D6FF,0,1,0,0,1
301,301,0,57,0a,1,37f,1d,57,1D6FF,0,1,0,0,1
302,302,0,57,0a,0,21,32,57,32042,0,1,0,0,1
303,303,0,42,0a,0,21,32,42,32042,0,1,0,0,1
304,304,0,42,0a,1,37,20,42,2006F,0,1,0,0,1
305,305,0,06f,0a,1,37,20,06f,2006F,0,1,0,0,1
306,306,0,06f,0a,1,7,9,06f,900F,0,1,0,0,1
307,307,0,70,0a,1,7,9,70,900F,0,1,0,0,1
308,308,0,70,0a,1,08a,0b,70,B115,0,1,0,0,1
309,309,0,71,0a,1,08a,0b,71,B115,0,1,0,0,1
310,310,0,71,0a,0,8,1c,71,1C010,0,1,0,0,1
311,311,0,72,0a,0,8,1c,72,1C010,0,1,0,0,1
312,312,0,72,0a,0,0,31,72,31000,0,1,0,0,1
313,313,0,43,0a,0,0,31,43,31000,0,1,0,0,1
314,314,0,43,0a,0,9,0b,43,B012,0,1,0,0,1
315,315,0,44,0a,0,9,0b,44,B012,0,1,0,0,1
316,316,0,44,0a,0,2,3,44,3004,0,1,0,0,1
317,317,0,45,0a,0,2,3,45,3004,0,1,0,0,1
318,318,0,45,0a,0,2,1d,45,1D004,0,1,0,0,1
319,319,0,46,0a,0,2,1d,46,1D004,0,1,0,0,1
320,320,0,46,0a,0,0d7,32,46,321AE,0,1,0,0,1
321,321,0,47,0a,0,0d7,32,47,321AE,0,1,0,0,1
322,322,0,47,0a,0,9,0b,47,B012,0,1,0,0,1
323,323,0,48,0a,0,9,0b,48,B012,0,1,0,0,1
324,324,0,48,0a,0,4,3,48,3008,0,1,0,0,1
325,325,0,49,0a,0,4,3,49,3008,0,1,0,0,1
326,326,0,49,0a,0,4,1d,49,1D008,0,1,0,0,1
327,327,0,04a,0a,0,4,1d,04a,1D008,0,1,0,0,1
328,328,0,04a,0a,0,17b,30,04a,302F6,0,1,0,0,1
329,329,0,04b,0a,0,17b,30,04b,302F6,0,1,0,0,1
330,330,0,04b,0a,0,182,20,04b,20304,0,1,0,0,1
331,331,0,304,0a,0,182,20,304,20304,0,1,0,0,1
332,332,0,304,0a,1,83,9,304,9107,0,1,0,0,1
333,333,0,305,0a,1,83,9,305,9107,0,1,0,0,1
334,334,0,305,0a,0,308,0,305,610,0,1,0,0,1
335,335,0,306,0a,0,308,0,306,610,0,1,0,0,1
336,336,0,306,0a,0,0c0,1d,306,1D180,0,1,0,0,1
337,337,0,307,0a,0,0c0,1d,307,1D180,0,1,0,0,1
338,338,0,307,0a,1,18d,38,307,3831B,0,1,0,0,1
339,339,0,308,0a,1,18d,38,308,3831B,0,1,0,0,1
340,340,0,308,0a,0,0,25,308,25000,0,1,0,0,1
341,341,0,04c,0a,0,0,25,04c,25000,0,1,0,0,1
342,342,0,04c,0a,0,340,1d,04c,1D680,0,1,0,0,1
343,343,0,04d,0a,0,340,1d,04d,1D680,0,1,0,0,1
344,344,0,04d,0a,1,55,38,04d,380AB,0,1,0,0,1
345,345,0,04e,0a,1,55,38,04e,380AB,0,1,0,0,1
346,346,0,04e,0a,1,17f,20,04e,202FF,0,1,0,0,1
347,347,0,2ff,0a,1,17f,20,2ff,202FF,0,1,0,0,1
348,348,0,2ff,0a,0,83,9,2ff,9106,0,1,0,0,1
349,349,0,300,0a,0,83,9,300,9106,0,1,0,0,1
350,350,0,300,0a,0,308,0,300,610,0,1,0,0,1
351,351,0,301,0a,0,308,0,301,610,0,1,0,0,1
352,352,0,301,0a,0,0c0,1d,301,1D180,0,1,0,0,1
353,353,0,302,0a,0,0c0,1d,302,1D180,0,1,0,0,1
354,354,0,302,0a,1,18a,38,302,38315,0,1,0,0,1
355,355,0,303,0a,1,18a,38,303,38315,0,1,0,0,1
356,356,0,303,0a,0,0,25,303,25000,0,1,0,0,1
357,357,0,04f,0a,0,0,25,04f,25000,0,1,0,0,1
358,358,0,04f,0a,0,340,1d,04f,1D680,0,1,0,0,1
359,359,0,50,0a,0,340,1d,50,1D680,0,1,0,0,1
360,360,0,50,0a,1,05a,38,50,380B5,0,1,0,0,1
361,361,0,51,0a,1,05a,38,51,380B5,0,1,0,0,1
362,362,0,51,0a,0,9,0b,51,B012,0,1,0,0,1
363,363,0,52,0a,0,9,0b,52,B012,0,1,0,0,1
364,364,0,52,0a,1,0,3,52,3001,0,1,0,0,1
365,365,0,53,0a,1,0,3,53,3001,0,1,0,0,1
366,366,0,53,0a,1,0,1d,53,1D001,0,1,0,0,1
367,367,0,54,0a,1,0,1d,54,1D001,0,1,0,0,1
368,368,0,54,0a,1,160,30,54,302C1,0,1,0,0,1
369,369,0,55,0a,1,160,30,55,302C1,0,1,0,0,1
370,370,0,55,0a,0,16e,20,55,202DC,0,1,0,0,1
371,371,0,2dc,0a,0,16e,20,2dc,202DC,0,1,0,0,1
372,372,0,2dc,0a,1,37f,1,2dc,16FF,0,1,0,0,1
373,373,0,2dd,0a,1,37f,1,2dd,16FF,0,1,0,0,1
374,374,0,2dd,0a,0,1bd,20,2dd,2037A,0,1,0,0,1
375,375,0,37a,0a,0,1bd,20,37a,2037A,0,1,0,0,1
376,376,0,37a,0a,1,0,9,37a,9001,0,1,0,0,1
377,377,0,37b,0a,1,0,9,37b,9001,0,1,0,0,1
378,378,0,37b,0a,1,0,3,37b,3001,0,1,0,0,1
379,379,0,37c,0a,1,0,3,37c,3001,0,1,0,0,1
380,380,0,37c,0a,1,0,1d,37c,1D001,0,1,0,0,1
381,381,0,37d,0a,1,0,1d,37d,1D001,0,1,0,0,1
382,382,0,37d,0a,0,0,25,37d,25000,0,1,0,0,1
383,383,0,2de,0a,0,0,25,2de,25000,0,1,0,0,1
384,384,0,2de,0a,0,0,35,2de,35000,0,1,0,0,1
385,385,0,56,0a,0,0,35,56,35000,0,1,0,0,1
386,386,0,56,0a,1,37f,1d,56,1D6FF,0,1,0,0,1
387,387,0,57,0a,1,37f,1d,57,1D6FF,0,1,0,0,1
388,388,0,57,0a,0,21,32,57,32042,0,1,0,0,1
389,389,0,42,0a,0,21,32,42,32042,0,1,0,0,1
390,390,0,42,0a,1,37,20,42,2006F,0,1,0,0,1
391,391,0,06f,0a,1,37,20,06f,2006F,0,1,0,0,1
392,392,0,06f,0a,1,7,9,06f,900F,0,1,0,0,1
393,393,0,70,0a,1,7,9,70,900F,0,1,0,0,1
394,394,0,70,0a,1,08a,0b,70,B115,0,1,0,0,1
395,395,0,71,0a,1,08a,0b,71,B115,0,1,0,0,1
396,396,0,71,0a,0,8,1c,71,1C010,0,1,0,0,1
397,397,0,72,0a,0,8,1c,72,1C010,0,1,0,0,1
398,398,0,72,0a,0,0,31,72,31000,0,1,0,0,1
399,399,0,43,2a,0,0,31,43,31000,0,1,0,0,1
400,400,0,43,2a,0,9,0b,43,B012,0,1,0,0,1
401,401,0,44,2a,0,9,0b,44,B012,0,1,0,0,1
402,402,0,44,2a,0,2,3,44,3004,0,1,0,0,1
403,403,0,45,2a,0,2,3,45,3004,0,1,0,0,1
404,404,0,45,2a,0,2,1d,45,1D004,0,1,0,0,1
405,405,0,46,2a,0,2,1d,46,1D004,0,1,0,0,1
406,406,0,46,2a,0,0d7,32,46,321AE,0,1,0,0,1
407,407,0,47,2a,0,0d7,32,47,321AE,0,1,0,0,1
408,408,0,47,2a,0,9,0b,47,B012,0,1,0,0,1
409,409,0,48,2a,0,9,0b,48,B012,0,1,0,0,1
410,410,0,48,2a,0,4,3,48,3008,0,1,0,0,1
411,411,0,49,2a,0,4,3,49,3008,0,1,0,0,1
412,412,0,49,2a,0,4,1d,49,1D008,0,1,0,0,1
413,413,0,04a,2a,0,4,1d,04a,1D008,0,1,0,0,1
414,414,0,04a,2a,0,17b,30,04a,302F6,0,1,0,0,1
415,415,0,04b,2a,0,17b,30,04b,302F6,0,1,0,0,1
416,416,0,04b,2a,0,182,20,04b,20304,0,1,0,0,1
417,417,0,304,2a,0,182,20,304,20304,0,1,0,0,1
418,418,0,304,2a,1,83,9,304,9107,0,1,0,0,1
419,419,0,305,2a,1,83,9,305,9107,0,1,0,0,1
420,420,0,305,2a,0,308,0,305,610,0,1,0,0,1
421,421,0,306,2a,0,308,0,306,610,0,1,0,0,1
422,422,0,306,2a,0,0c0,1d,306,1D180,0,1,0,0,1
423,423,0,307,2a,0,0c0,1d,307,1D180,0,1,0,0,1
424,424,0,307,2a,1,18d,38,307,3831B,0,1,0,0,1
425,425,0,308,2a,1,18d,38,308,3831B,0,1,0,0,1
426,426,0,308,2a,0,0,25,308,25000,0,1,0,0,1
427,427,0,04c,2a,0,0,25,04c,25000,0,1,0,0,1
428,428,0,04c,2a,0,340,1d,04c,1D680,0,1,0,0,1
429,429,0,04d,2a,0,340,1d,04d,1D680,0,1,0,0,1
430,430,0,04d,2a,1,55,38,04d,380AB,0,1,0,0,1
431,431,0,04e,2a,1,55,38,04e,380AB,0,1,0,0,1
432,432,0,04e,2a,1,17f,20,04e,202FF,0,1,0,0,1
433,433,0,2ff,2a,1,17f,20,2ff,202FF,0,1,0,0,1
434,434,0,2ff,2a,0,83,9,2ff,9106,0,1,0,0,1
435,435,0,300,2a,0,83,9,300,9106,0,1,0,0,1
436,436,0,300,2a,0,308,0,300,610,0,1,0,0,1
437,437,0,301,2a,0,308,0,301,610,0,1,0,0,1
438,438,0,301,2a,0,0c0,1d,301,1D180,0,1,0,0,1
439,439,0,302,2a,0,0c0,1d,302,1D180,0,1,0,0,1
440,440,0,302,2a,1,18a,38,302,38315,0,1,0,0,1
441,441,0,303,2a,1,18a,38,303,38315,0,1,0,0,1
442,442,0,303,2a,0,0,25,303,25000,0,1,0,0,1
443,443,0,04f,2a,0,0,25,04f,25000,0,1,0,0,1
444,444,0,04f,2a,0,340,1d,04f,1D680,0,1,0,0,1
445,445,0,50,2a,0,340,1d,50,1D680,0,1,0,0,1
446,446,0,50,2a,1,05a,38,50,380B5,0,1,0,0,1
447,447,0,51,2a,1,05a,38,51,380B5,0,1,0,0,1
448,448,0,51,2a,0,9,0b,51,B012,0,1,0,0,1
449,449,0,52,2a,0,9,0b,52,B012,0,1,0,0,1
450,450,0,52,2a,1,0,3,52,3001,0,1,0,0,1
